
T0498 000:367 SEGGER J-Link V4.40c Log File (0000ms, 0363ms total)
T0498 000:367 DLL Compiled: Jan 24 2012 09:30:33 (0000ms, 0363ms total)
T0498 000:367 Logging started @ 2015-11-30 11:08 (0000ms, 0363ms total)
T0498 000:367 JLINK_SetWarnOutHandler(...) (0000ms, 0363ms total)
T0498 000:367 JLINK_OpenEx(...)
Firmware: J-Link ARM V8 compiled Nov 25 2013 19:20:08
Hardware: V8.00
S/N: 1350709590
Feature(s): RDI,FlashDL,FlashBP,JFlash,GDBFULL  returns O.K. (0173ms, 0363ms total)
T0498 000:540 JLINK_SetErrorOutHandler(...) (0000ms, 0536ms total)
T0498 000:541 JLINK_ExecCommand("Device = STM32F105RC", ...)
                JLINK_ExecCommand("map ram 0x20000000 - 0x20004FFF", ...)  returns 0x00 (0000ms, 0000ms total)
                JLINK_AddMirrorAreaEx(Addr = 0x00000000, Size = 0x00000000) (0000ms, 0000ms total)
              Device "STM32F105RC" selected (256 KB flash, 20 KB RAM).  returns 0x00 (0001ms, 0536ms total)
T0498 000:544 JLINK_ExecCommand("ProjectFile = "C:\Users\edon\Desktop\现用程序\STM32_APP\Project\USB_Host_Examples\红外源码刹车改好\MDK-ARM\JLinkSettings.ini"", ...)  returns 0x00 (0000ms, 0537ms total)
T0498 000:546 JLINK_ExecCommand("DisableConnectionTimeout", ...)  returns 0x00 (0000ms, 0537ms total)
T0498 000:547 JLINK_TIF_Select(JLINKARM_TIF_JTAG)  returns 0x00 (0000ms, 0537ms total)
T0498 000:547 JLINK_SetSpeed(2000) (0001ms, 0537ms total)
T0498 000:548 JLINK_GetHardwareVersion()  returns 0x13880 (0000ms, 0538ms total)
T0498 000:548 JLINK_GetDLLVersion()  returns 44003 (0000ms, 0538ms total)
T0498 000:548 JLINK_GetFirmwareString(...) (0000ms, 0538ms total)
T0498 000:548 JLINK_GetDLLVersion()  returns 44003 (0000ms, 0538ms total)
T0498 000:548 JLINK_GetCompileDateTime() (0000ms, 0538ms total)
T0498 000:548 JLINK_GetFirmwareString(...) (0000ms, 0538ms total)
T0498 000:548 JLINK_GetHardwareVersion()  returns 0x13880 (0000ms, 0538ms total)
T0498 000:549 JLINK_GetIdData(...) >0x2F8 JTAG>TotalIRLen = 9, IRPrint = 0x0011 >0x30 JTAG> >0x210 JTAG> >0x80 JTAG> >0x40 JTAG> >0x40 JTAG> >0x50 JTAG> >0x40 JTAG> >0x40 JTAG> >0x40 JTAG> >0x50 JTAG> >0x40 JTAG> >0x50 JTAG> >0x40 JTAG> >0x40 JTAG> >0x40 JTAG> >0x30 JTAG> >0x40 JTAG> >0x50 JTAG> >0x40 JTAG> >0x38 JTAG> >0x80 JTAG> >0x40 JTAG> >0x40 JTAG> >0x50 JTAG> >0x40 JTAG> >0x40 JTAG> >0x40 JTAG> >0x50 JTAG> >0x40 JTAG> >0x40 JTAG> >0x30 JTAG> >0x40 JTAG> >0x40 JTAG> >0x40 JTAG> >0x40 JTAG>
 >0x40 JTAG> >0x50 JTAG> >0x40 JTAG> >0x80 JTAG> >0x40 JTAG> >0x30 JTAG> >0x40 JTAG> >0x40 JTAG> >0x40 JTAG> >0x40 JTAG> >0x40 JTAG> >0x50 JTAG> >0x40 JTAG> >0x80 JTAG> >0x40 JTAG> >0x30 JTAG> >0x40 JTAG> >0x50 JTAG> >0x40 JTAG> >0x40 JTAG> >0x40 JTAG> >0x30 JTAG> >0x40 JTAG> >0x50 JTAG> >0x40 JTAG>Found Cortex-M3 r1p1, Little endian. >0x50 JTAG> >0x50 JTAG> >0x40 JTAG> >0x40 JTAG> >0x30 JTAG> >0x30 JTAG> >0x50 JTAG> >0x40 JTAG> >0x80 JTAG> >0x40 JTAG> >0x30 JTAG> >0x40 JTAG> >0x50 JTAG> >0x40 JTAG>
 >0x40 JTAG> >0x40 JTAG> >0x30 JTAG> >0x40 JTAG> >0x50 JTAG> >0x40 JTAG>TPIU fitted. >0x40 JTAG> >0x40 JTAG> >0x30 JTAG> >0x40 JTAG> >0x50 JTAG> >0x40 JTAG>ETM fitted. >0x40 JTAG> >0x40 JTAG> >0x30 JTAG> >0x40 JTAG> >0x50 JTAG> >0x40 JTAG> >0x40 JTAG> >0x40 JTAG> >0x30 JTAG> >0x40 JTAG> >0x50 JTAG> >0x40 JTAG>  FPUnit: 6 code (BP) slots and 2 literal slots >0x40 JTAG> >0x40 JTAG> >0x30 JTAG> >0x40 JTAG> >0x50 JTAG> >0x40 JTAG> >0x40 JTAG> >0x40 JTAG> >0x30 JTAG> >0x40 JTAG> >0x50 JTAG> >0x40 JTAG>
 ScanLen=9 NumDevices=2 aId[0]=0x3BA00477 aIrRead[0]=0 aScanLen[0]=0 aScanRead[0]=0 (0114ms, 0538ms total)
T0498 000:663 JLINK_JTAG_GetDeviceID(DeviceIndex = 0)  returns 0x3BA00477 (0000ms, 0652ms total)
T0498 000:663 JLINK_JTAG_GetDeviceInfo(DeviceIndex = 0)  returns 0x00 (0000ms, 0652ms total)
T0498 000:663 JLINK_JTAG_GetDeviceID(DeviceIndex = 1)  returns 0x6418041 (0000ms, 0652ms total)
T0498 000:663 JLINK_JTAG_GetDeviceInfo(DeviceIndex = 1)  returns 0x00 (0000ms, 0652ms total)
T0498 000:663 JLINK_GetDebugInfo(0x100) -- Value=0xE00FF003  returns 0x00 (0000ms, 0652ms total)
T0498 000:663 JLINK_ReadMem (0xE00FFFF0, 0x0010 Bytes, ...) -- CPU is running -- CPU_ReadMem(16 bytes @ 0xE00FFFF0) -- Data:  0D 00 00 00 10 00 00 00 05 00 00 00 B1 00 00 00  returns 0x00 (0005ms, 0652ms total)
T0498 000:668 JLINK_ReadMem (0xE00FFFD0, 0x0020 Bytes, ...) -- CPU is running -- CPU_ReadMem(32 bytes @ 0xE00FFFD0) -- Data:  00 00 00 00 00 00 00 00 00 00 00 00 00 00 00 00 ...  returns 0x00 (0001ms, 0657ms total)
T0498 000:669 JLINK_ReadMem (0xE00FF000, 0x0018 Bytes, ...) -- CPU is running -- CPU_ReadMem(24 bytes @ 0xE00FF000) -- Data:  03 F0 F0 FF 03 20 F0 FF 03 30 F0 FF 03 10 F0 FF ...  returns 0x00 (0001ms, 0658ms total)
T0498 000:670 JLINK_ReadMemU32(0xE000ED00, 0x0001 Items, ...) -- CPU is running -- CPU_ReadMem(4 bytes @ 0xE000ED00) -- Data:  31 C2 1F 41  returns 0x01 (0001ms, 0659ms total)
T0498 000:671 JLINK_SetResetType(JLINKARM_RESET_TYPE_NORMAL)  returns JLINKARM_RESET_TYPE_NORMAL (0000ms, 0660ms total)
T0498 000:671 JLINK_Reset() >0x308 JTAG>TotalIRLen = 9, IRPrint = 0x0011 >0x30 JTAG> >0x210 JTAG> >0x80 JTAG> >0x40 JTAG> >0x40 JTAG> >0x50 JTAG> >0x40 JTAG> >0x40 JTAG> >0x40 JTAG> >0x50 JTAG> >0x40 JTAG> >0x50 JTAG> >0x40 JTAG> >0x40 JTAG> >0x40 JTAG> >0x30 JTAG> >0x40 JTAG> >0x50 JTAG> >0x40 JTAG> >0x38 JTAG> >0x80 JTAG> >0x40 JTAG> >0x40 JTAG> >0x50 JTAG> >0x40 JTAG> >0x40 JTAG> >0x40 JTAG> >0x50 JTAG> >0x40 JTAG> >0x40 JTAG> >0x30 JTAG> >0x40 JTAG> >0x40 JTAG> >0x40 JTAG> >0x40 JTAG> >0x40 JTAG>
 >0x50 JTAG> >0x40 JTAG> >0x80 JTAG> >0x40 JTAG> >0x30 JTAG> >0x40 JTAG> >0x40 JTAG> >0x40 JTAG> >0x40 JTAG> >0x40 JTAG> >0x50 JTAG> >0x40 JTAG> >0x80 JTAG> >0x40 JTAG> >0x30 JTAG> >0x40 JTAG> >0x50 JTAG> >0x40 JTAG> >0x40 JTAG> >0x40 JTAG> >0x30 JTAG> >0x40 JTAG> >0x50 JTAG> >0x40 JTAG>Found Cortex-M3 r1p1, Little endian. >0x50 JTAG> >0x50 JTAG> >0x40 JTAG> >0x40 JTAG> >0x30 JTAG> >0x30 JTAG> >0x50 JTAG> >0x40 JTAG> >0x80 JTAG> >0x40 JTAG> >0x30 JTAG> >0x40 JTAG> >0x50 JTAG> >0x40 JTAG> >0x40 JTAG>
 >0x40 JTAG> >0x30 JTAG> >0x40 JTAG> >0x50 JTAG> >0x40 JTAG>TPIU fitted. >0x40 JTAG> >0x40 JTAG> >0x30 JTAG> >0x40 JTAG> >0x50 JTAG> >0x40 JTAG>ETM fitted. >0x40 JTAG> >0x40 JTAG> >0x30 JTAG> >0x40 JTAG> >0x50 JTAG> >0x40 JTAG> >0x40 JTAG> >0x40 JTAG> >0x30 JTAG> >0x40 JTAG> >0x50 JTAG> >0x40 JTAG>  FPUnit: 6 code (BP) slots and 2 literal slots >0x40 JTAG> >0x40 JTAG> >0x30 JTAG> >0x40 JTAG> >0x50 JTAG> >0x40 JTAG> >0x40 JTAG> >0x40 JTAG> >0x30 JTAG> >0x40 JTAG> >0x50 JTAG> >0x40 JTAG> >0x48 JTAG>
 >0x80 JTAG> >0x40 JTAG> >0x40 JTAG> >0x50 JTAG> >0x40 JTAG> >0x40 JTAG> >0x40 JTAG> >0x50 JTAG> >0x40 JTAG> >0x40 JTAG> >0x30 JTAG> >0x40 JTAG> >0x40 JTAG> >0x40 JTAG> >0x40 JTAG> >0x40 JTAG> >0x50 JTAG> >0x40 JTAG> >0x80 JTAG> >0x40 JTAG> >0x30 JTAG> >0x40 JTAG> >0x40 JTAG> >0x40 JTAG> >0x40 JTAG> >0x40 JTAG> >0x50 JTAG> >0x40 JTAG> >0x80 JTAG> >0x40 JTAG> >0x30 JTAG> >0x40 JTAG> >0x50 JTAG> >0x40 JTAG> >0x40 JTAG> >0x40 JTAG> >0x30 JTAG> >0x40 JTAG> >0x50 JTAG> >0x40 JTAG>
Found Cortex-M3 r1p1, Little endian. >0x50 JTAG> >0x50 JTAG> >0x40 JTAG> >0x40 JTAG> >0x30 JTAG> >0x30 JTAG> >0x50 JTAG> >0x40 JTAG> >0x80 JTAG> >0x40 JTAG> >0x30 JTAG> >0x40 JTAG> >0x50 JTAG> >0x40 JTAG> >0x40 JTAG> >0x40 JTAG> >0x30 JTAG> >0x40 JTAG> >0x50 JTAG> >0x40 JTAG>TPIU fitted. >0x40 JTAG> >0x40 JTAG> >0x30 JTAG> >0x40 JTAG> >0x50 JTAG> >0x40 JTAG>ETM fitted. >0x40 JTAG> >0x40 JTAG> >0x30 JTAG> >0x40 JTAG> >0x50 JTAG> >0x40 JTAG> >0x40 JTAG> >0x40 JTAG> >0x30 JTAG> >0x40 JTAG> >0x50 JTAG>
 >0x40 JTAG>  FPUnit: 6 code (BP) slots and 2 literal slots >0x40 JTAG> >0x40 JTAG> >0x30 JTAG> >0x40 JTAG> >0x50 JTAG> >0x40 JTAG> >0x40 JTAG> >0x40 JTAG> >0x30 JTAG> >0x40 JTAG> >0x50 JTAG> >0x40 JTAG> -- CPU is running -- CPU_WriteMem(4 bytes @ 0xE000EDF0) -- CPU is running -- CPU_WriteMem(4 bytes @ 0xE000EDFC) -- CPU is running -- CPU_WriteMem(4 bytes @ 0xE000ED0C) -- CPU is running -- CPU_ReadMem(4 bytes @ 0xE000EDF0) -- CPU is running -- CPU_ReadMem(4 bytes @ 0xE000EDF0) -- CPU is running
 -- CPU_WriteMem(4 bytes @ 0xE000EDF0) -- CPU is running -- CPU_WriteMem(4 bytes @ 0xE000EDFC) -- CPU is running -- CPU_ReadMem(4 bytes @ 0xE000EDF0) >0x90 JTAG> >0x40 JTAG> >0x30 JTAG> >0x40 JTAG> >0x50 JTAG> >0x40 JTAG> -- CPU_WriteMem(4 bytes @ 0xE000EDFC) -- CPU_WriteMem(4 bytes @ 0xE0001028) -- CPU_WriteMem(4 bytes @ 0xE0001038) -- CPU_WriteMem(4 bytes @ 0xE0001048) -- CPU_WriteMem(4 bytes @ 0xE0001058) (0239ms, 0660ms total)
T0498 000:910 JLINK_ReadReg(R15)  returns 0x08000164 (0000ms, 0899ms total)
T0498 000:910 JLINK_ReadReg(XPSR)  returns 0x01000000 (0000ms, 0899ms total)
T0498 000:910 JLINK_Halt()  returns 0x00 (0000ms, 0899ms total)
T0498 000:910 JLINK_IsHalted()  returns TRUE (0000ms, 0899ms total)
T0498 000:910 JLINK_ReadMemU32(0xE000EDF0, 0x0001 Items, ...) -- CPU_ReadMem(4 bytes @ 0xE000EDF0) -- Data:  03 00 03 00  returns 0x01 (0001ms, 0899ms total)
T0498 000:911 JLINK_WriteU32(0xE000EDF0, 0xA05F0003) -- CPU_WriteMem(4 bytes @ 0xE000EDF0)  returns 0x00 (0001ms, 0900ms total)
T0498 000:912 JLINK_WriteU32(0xE000EDFC, 0x01000000) -- CPU_WriteMem(4 bytes @ 0xE000EDFC)  returns 0x00 (0001ms, 0901ms total)
T0498 000:913 JLINK_GetHWStatus(...)  returns 0x00 (0001ms, 0902ms total)
T0498 000:914 JLINK_GetNumBPUnits(Type = 0xFFFFFF00)  returns 0x06 (0000ms, 0903ms total)
T0498 000:914 JLINK_GetNumBPUnits(Type = 0xF0)  returns 0x2000 (0000ms, 0903ms total)
T0498 000:914 JLINK_GetNumWPUnits()  returns 0x04 (0000ms, 0903ms total)
T0498 000:914 JLINK_GetSpeed()  returns 0x7D0 (0000ms, 0903ms total)
T0498 000:914 JLINK_ReadMemU32(0xE000E004, 0x0001 Items, ...) -- CPU_ReadMem(4 bytes @ 0xE000E004) -- Data:  02 00 00 00  returns 0x01 (0001ms, 0903ms total)
T0498 000:915 JLINK_ReadMemU32(0xE000E004, 0x0001 Items, ...) -- CPU_ReadMem(4 bytes @ 0xE000E004) -- Data:  02 00 00 00  returns 0x01 (0001ms, 0904ms total)
T0498 000:916 JLINK_WriteMem(0xE0001000, 0x001C Bytes, ...) -- Data:  01 00 00 00 00 00 00 00 00 00 00 00 00 00 00 00 ... -- CPU_WriteMem(28 bytes @ 0xE0001000)  returns 0x1C (0001ms, 0905ms total)
T0498 000:917 JLINK_ReadMem (0xE0001000, 0x001C Bytes, ...) -- CPU_ReadMem(28 bytes @ 0xE0001000) -- Data:  01 00 00 40 00 00 00 00 00 00 00 00 00 00 00 00 ...  returns 0x00 (0001ms, 0906ms total)
T0498 000:918 JLINK_ReadReg(R15)  returns 0x08000164 (0000ms, 0907ms total)
T0498 000:918 JLINK_ReadReg(XPSR)  returns 0x01000000 (0000ms, 0907ms total)
T0498 001:098 JLINK_SetResetType(JLINKARM_RESET_TYPE_NORMAL)  returns JLINKARM_RESET_TYPE_NORMAL (0000ms, 0907ms total)
T0498 001:098 JLINK_Reset() >0x2F8 JTAG>TotalIRLen = 9, IRPrint = 0x0011 >0x30 JTAG> >0x210 JTAG> >0x80 JTAG> >0x40 JTAG> >0x40 JTAG> >0x50 JTAG> >0x40 JTAG> >0x40 JTAG> >0x40 JTAG> >0x50 JTAG> >0x40 JTAG> >0x50 JTAG> >0x40 JTAG> >0x40 JTAG> >0x40 JTAG> >0x30 JTAG> >0x40 JTAG> >0x50 JTAG> >0x40 JTAG> >0x38 JTAG> >0x80 JTAG> >0x40 JTAG> >0x40 JTAG> >0x50 JTAG> >0x40 JTAG> >0x40 JTAG> >0x40 JTAG> >0x50 JTAG> >0x40 JTAG> >0x40 JTAG> >0x30 JTAG> >0x40 JTAG> >0x40 JTAG> >0x40 JTAG> >0x40 JTAG> >0x40 JTAG>
 >0x50 JTAG> >0x40 JTAG> >0x80 JTAG> >0x40 JTAG> >0x30 JTAG> >0x40 JTAG> >0x40 JTAG> >0x40 JTAG> >0x40 JTAG> >0x40 JTAG> >0x50 JTAG> >0x40 JTAG> >0x80 JTAG> >0x40 JTAG> >0x30 JTAG> >0x40 JTAG> >0x50 JTAG> >0x40 JTAG> >0x40 JTAG> >0x40 JTAG> >0x30 JTAG> >0x40 JTAG> >0x50 JTAG> >0x40 JTAG>Found Cortex-M3 r1p1, Little endian. >0x50 JTAG> >0x50 JTAG> >0x40 JTAG> >0x40 JTAG> >0x30 JTAG> >0x30 JTAG> >0x50 JTAG> >0x40 JTAG> >0x80 JTAG> >0x40 JTAG> >0x30 JTAG> >0x40 JTAG> >0x50 JTAG> >0x40 JTAG> >0x40 JTAG>
 >0x40 JTAG> >0x30 JTAG> >0x40 JTAG> >0x50 JTAG> >0x40 JTAG>TPIU fitted. >0x40 JTAG> >0x40 JTAG> >0x30 JTAG> >0x40 JTAG> >0x50 JTAG> >0x40 JTAG>ETM fitted. >0x40 JTAG> >0x40 JTAG> >0x30 JTAG> >0x40 JTAG> >0x50 JTAG> >0x40 JTAG> >0x40 JTAG> >0x40 JTAG> >0x30 JTAG> >0x40 JTAG> >0x50 JTAG> >0x40 JTAG>  FPUnit: 6 code (BP) slots and 2 literal slots >0x40 JTAG> >0x40 JTAG> >0x30 JTAG> >0x40 JTAG> >0x50 JTAG> >0x40 JTAG> >0x40 JTAG> >0x40 JTAG> >0x30 JTAG> >0x40 JTAG> >0x50 JTAG> >0x40 JTAG> >0x48 JTAG>
 >0x80 JTAG> >0x40 JTAG> >0x40 JTAG> >0x50 JTAG> >0x40 JTAG> >0x40 JTAG> >0x40 JTAG> >0x50 JTAG> >0x40 JTAG> >0x40 JTAG> >0x30 JTAG> >0x40 JTAG> >0x40 JTAG> >0x40 JTAG> >0x40 JTAG> >0x40 JTAG> >0x50 JTAG> >0x40 JTAG> >0x80 JTAG> >0x40 JTAG> >0x30 JTAG> >0x40 JTAG> >0x40 JTAG> >0x40 JTAG> >0x40 JTAG> >0x40 JTAG> >0x50 JTAG> >0x40 JTAG> >0x80 JTAG> >0x40 JTAG> >0x30 JTAG> >0x40 JTAG> >0x50 JTAG> >0x40 JTAG> >0x40 JTAG> >0x40 JTAG> >0x30 JTAG> >0x40 JTAG> >0x50 JTAG> >0x40 JTAG>
Found Cortex-M3 r1p1, Little endian. >0x50 JTAG> >0x50 JTAG> >0x40 JTAG> >0x40 JTAG> >0x30 JTAG> >0x30 JTAG> >0x50 JTAG> >0x40 JTAG> >0x80 JTAG> >0x40 JTAG> >0x30 JTAG> >0x40 JTAG> >0x50 JTAG> >0x40 JTAG> >0x40 JTAG> >0x40 JTAG> >0x30 JTAG> >0x40 JTAG> >0x50 JTAG> >0x40 JTAG>TPIU fitted. >0x40 JTAG> >0x40 JTAG> >0x30 JTAG> >0x40 JTAG> >0x50 JTAG> >0x40 JTAG>ETM fitted. >0x40 JTAG> >0x40 JTAG> >0x30 JTAG> >0x40 JTAG> >0x50 JTAG> >0x40 JTAG> >0x40 JTAG> >0x40 JTAG> >0x30 JTAG> >0x40 JTAG> >0x50 JTAG>
 >0x40 JTAG>  FPUnit: 6 code (BP) slots and 2 literal slots >0x40 JTAG> >0x40 JTAG> >0x30 JTAG> >0x40 JTAG> >0x50 JTAG> >0x40 JTAG> >0x40 JTAG> >0x40 JTAG> >0x30 JTAG> >0x40 JTAG> >0x50 JTAG> >0x40 JTAG> -- CPU_WriteMem(4 bytes @ 0xE000EDF0) -- CPU_WriteMem(4 bytes @ 0xE000EDFC) -- CPU_WriteMem(4 bytes @ 0xE000ED0C) -- CPU_ReadMem(4 bytes @ 0xE000EDF0) -- CPU_ReadMem(4 bytes @ 0xE000EDF0) -- CPU_WriteMem(4 bytes @ 0xE000EDF0) -- CPU_WriteMem(4 bytes @ 0xE000EDFC) -- CPU is running
 -- CPU_ReadMem(4 bytes @ 0xE000EDF0) >0x90 JTAG> >0x40 JTAG> >0x30 JTAG> >0x40 JTAG> >0x50 JTAG> >0x40 JTAG> -- CPU_WriteMem(4 bytes @ 0xE000EDFC) -- CPU_WriteMem(4 bytes @ 0xE0001028) -- CPU_WriteMem(4 bytes @ 0xE0001038) -- CPU_WriteMem(4 bytes @ 0xE0001048) -- CPU_WriteMem(4 bytes @ 0xE0001058) (0241ms, 0907ms total)
T0498 001:339 JLINK_ReadReg(R15)  returns 0x08000164 (0001ms, 1148ms total)
T0498 001:340 JLINK_ReadReg(XPSR)  returns 0x01000000 (0000ms, 1149ms total)
T0498 001:340 JLINK_ReadMemU32(0xE0001004, 0x0001 Items, ...) -- CPU_ReadMem(4 bytes @ 0xE0001004) -- Data:  00 00 00 00  returns 0x01 (0002ms, 1149ms total)
T0498 001:342 JLINK_ReadMem (0x08000164, 0x003C Bytes, ...) -- CPU_ReadMem(128 bytes @ 0x08000140) -- Updating C cache (128 bytes @ 0x08000140) -- Read from C cache (60 bytes @ 0x08000164) -- Data:  06 48 80 47 06 48 00 47 FE E7 FE E7 FE E7 FE E7 ...  returns 0x00 (0002ms, 1151ms total)
T0498 001:731 JLINK_ReadMem (0x080127BA, 0x0002 Bytes, ...) -- CPU_ReadMem(64 bytes @ 0x08012780) -- Updating C cache (64 bytes @ 0x08012780) -- Read from C cache (2 bytes @ 0x080127BA) -- Data:  14 21  returns 0x00 (0002ms, 1153ms total)
T0498 001:733 JLINK_ReadMem (0x080127BC, 0x003C Bytes, ...) -- CPU_ReadMem(64 bytes @ 0x080127C0) -- Updating C cache (64 bytes @ 0x080127C0) -- Read from C cache (60 bytes @ 0x080127BC) -- Data:  1F 48 F9 F7 FC FC 1E 4A 80 3A 10 5D 64 1C E4 B2 ...  returns 0x00 (0002ms, 1155ms total)
T1E7C 001:841 JLINK_SetBPEx(Addr = 0x080122B4, Type = 0xFFFFFFF2)  returns 0x00000001 (0000ms, 1157ms total)
T1E7C 001:841 JLINK_Go() -- CPU_WriteMem(4 bytes @ 0xE0002000) -- CPU_WriteMem(4 bytes @ 0xE0002008) -- CPU_WriteMem(4 bytes @ 0xE000200C) -- CPU_WriteMem(4 bytes @ 0xE0002010) -- CPU_WriteMem(4 bytes @ 0xE0002014) -- CPU_WriteMem(4 bytes @ 0xE0002018) -- CPU_WriteMem(4 bytes @ 0xE000201C) (0011ms, 1157ms total)
T1E7C 001:952 JLINK_IsHalted()  returns FALSE (0001ms, 1168ms total)
T1E7C 002:053 JLINK_IsHalted()  returns FALSE (0001ms, 1168ms total)
T1E7C 002:154 JLINK_IsHalted()  returns FALSE (0001ms, 1168ms total)
T1E7C 002:255 JLINK_IsHalted()  returns FALSE (0001ms, 1168ms total)
T1E7C 002:356 JLINK_IsHalted()  returns FALSE (0002ms, 1168ms total)
T1E7C 002:458 JLINK_IsHalted()  returns FALSE (0003ms, 1168ms total)
T1E7C 002:561 JLINK_IsHalted()  returns FALSE (0001ms, 1168ms total)
T1E7C 002:662 JLINK_IsHalted()  returns FALSE (0001ms, 1168ms total)
T1E7C 002:763 JLINK_IsHalted()  returns FALSE (0001ms, 1168ms total)
T1E7C 002:864 JLINK_IsHalted()  returns FALSE (0001ms, 1168ms total)
T1E7C 002:965 JLINK_IsHalted()  returns FALSE (0001ms, 1168ms total)
T1E7C 003:066 JLINK_IsHalted()  returns FALSE (0001ms, 1168ms total)
T1E7C 003:167 JLINK_IsHalted()  returns FALSE (0001ms, 1168ms total)
T1E7C 003:268 JLINK_IsHalted()  returns FALSE (0001ms, 1168ms total)
T1E7C 003:369 JLINK_IsHalted()  returns TRUE (0006ms, 1168ms total)
T1E7C 003:375 JLINK_Halt()  returns 0x00 (0000ms, 1168ms total)
T1E7C 003:375 JLINK_IsHalted()  returns TRUE (0000ms, 1168ms total)
T1E7C 003:375 JLINK_IsHalted()  returns TRUE (0000ms, 1168ms total)
T1E7C 003:375 JLINK_IsHalted()  returns TRUE (0000ms, 1168ms total)
T1E7C 003:375 JLINK_ReadReg(R15)  returns 0x080122B4 (0000ms, 1168ms total)
T1E7C 003:375 JLINK_ReadReg(XPSR)  returns 0x61000000 (0000ms, 1168ms total)
T1E7C 003:375 JLINK_ClrBPEx(BPHandle = 0x00000001)  returns 0x00 (0000ms, 1168ms total)
T1E7C 003:375 JLINK_ReadMemU32(0xE000ED30, 0x0001 Items, ...) -- CPU_ReadMem(4 bytes @ 0xE000ED30) -- Data:  03 00 00 00  returns 0x01 (0001ms, 1168ms total)
T1E7C 003:376 JLINK_ReadMemU32(0xE0001028, 0x0001 Items, ...) -- CPU_ReadMem(4 bytes @ 0xE0001028) -- Data:  00 00 00 00  returns 0x01 (0001ms, 1169ms total)
T1E7C 003:377 JLINK_ReadMemU32(0xE0001038, 0x0001 Items, ...) -- CPU_ReadMem(4 bytes @ 0xE0001038) -- Data:  00 02 00 00  returns 0x01 (0001ms, 1170ms total)
T1E7C 003:378 JLINK_ReadMemU32(0xE0001048, 0x0001 Items, ...) -- CPU_ReadMem(4 bytes @ 0xE0001048) -- Data:  00 00 00 00  returns 0x01 (0001ms, 1171ms total)
T1E7C 003:379 JLINK_ReadMemU32(0xE0001058, 0x0001 Items, ...) -- CPU_ReadMem(4 bytes @ 0xE0001058) -- Data:  00 00 00 00  returns 0x01 (0001ms, 1172ms total)
T1E7C 003:380 JLINK_ReadReg(R0)  returns 0x080122B5 (0000ms, 1173ms total)
T1E7C 003:380 JLINK_ReadReg(R1)  returns 0x200028F8 (0000ms, 1173ms total)
T1E7C 003:380 JLINK_ReadReg(R2)  returns 0x00000000 (0000ms, 1173ms total)
T1E7C 003:380 JLINK_ReadReg(R3)  returns 0x08010AFD (0000ms, 1173ms total)
T1E7C 003:380 JLINK_ReadReg(R4)  returns 0x080155A4 (0000ms, 1173ms total)
T1E7C 003:380 JLINK_ReadReg(R5)  returns 0x080155A4 (0000ms, 1173ms total)
T1E7C 003:380 JLINK_ReadReg(R6)  returns 0x00000000 (0000ms, 1173ms total)
T1E7C 003:380 JLINK_ReadReg(R7)  returns 0x00000000 (0000ms, 1173ms total)
T1E7C 003:380 JLINK_ReadReg(R8)  returns 0x00000000 (0000ms, 1173ms total)
T1E7C 003:380 JLINK_ReadReg(R9)  returns 0x20000160 (0000ms, 1173ms total)
T1E7C 003:380 JLINK_ReadReg(R10)  returns 0x00000000 (0000ms, 1173ms total)
T1E7C 003:380 JLINK_ReadReg(R11)  returns 0x00000000 (0000ms, 1173ms total)
T1E7C 003:380 JLINK_ReadReg(R12)  returns 0x200000C8 (0000ms, 1173ms total)
T1E7C 003:380 JLINK_ReadReg(R13)  returns 0x200028F8 (0000ms, 1173ms total)
T1E7C 003:380 JLINK_ReadReg(R14)  returns 0x0800C251 (0000ms, 1173ms total)
T1E7C 003:380 JLINK_ReadReg(R15)  returns 0x080122B4 (0000ms, 1173ms total)
T1E7C 003:380 JLINK_ReadReg(XPSR)  returns 0x61000000 (0000ms, 1173ms total)
T1E7C 003:380 JLINK_ReadReg(MSP)  returns 0x200028F8 (0000ms, 1173ms total)
T1E7C 003:380 JLINK_ReadReg(PSP)  returns 0x20000800 (0000ms, 1173ms total)
T1E7C 003:380 JLINK_ReadReg(CFBP)  returns 0x00000000 (0000ms, 1173ms total)
T0498 003:381 JLINK_ReadMemU32(0xE0001004, 0x0001 Items, ...) -- CPU_ReadMem(4 bytes @ 0xE0001004) -- Data:  C4 D5 7C 06  returns 0x01 (0001ms, 1173ms total)
T0498 003:385 JLINK_ReadMem (0x080122B4, 0x003C Bytes, ...) -- CPU_ReadMem(128 bytes @ 0x08012280) -- Updating C cache (128 bytes @ 0x08012280) -- Read from C cache (60 bytes @ 0x080122B4) -- Data:  08 B5 4F F4 40 41 4F F0 00 60 FB F7 A9 F9 1E 48 ...  returns 0x00 (0003ms, 1174ms total)
T0498 011:555 JLINK_ReadMem (0x200003B0, 0x0014 Bytes, ...) -- CPU_ReadMem(128 bytes @ 0x20000380) -- Updating C cache (128 bytes @ 0x20000380) -- Read from C cache (20 bytes @ 0x200003B0) -- Data:  00 00 00 00 00 00 00 00 00 00 00 00 00 00 00 00 ...  returns 0x00 (0003ms, 1177ms total)
T1E7C 013:050 JLINK_Step() -- Read from C cache (2 bytes @ 0x080122B4) -- Not simulated -- CPU_WriteMem(4 bytes @ 0xE0002008) -- CPU_WriteMem(4 bytes @ 0xE000200C) -- CPU_WriteMem(4 bytes @ 0xE0002010) -- CPU_WriteMem(4 bytes @ 0xE0002014) -- CPU_WriteMem(4 bytes @ 0xE0002018) -- CPU_WriteMem(4 bytes @ 0xE000201C)  returns 0x00 (0014ms, 1180ms total)
T1E7C 013:065 JLINK_ReadReg(R15)  returns 0x080122B6 (0000ms, 1194ms total)
T1E7C 013:065 JLINK_ReadReg(XPSR)  returns 0x61000000 (0000ms, 1194ms total)
T1E7C 013:065 JLINK_ReadReg(R0)  returns 0x080122B5 (0000ms, 1194ms total)
T1E7C 013:065 JLINK_ReadReg(R1)  returns 0x200028F8 (0000ms, 1194ms total)
T1E7C 013:065 JLINK_ReadReg(R2)  returns 0x00000000 (0000ms, 1194ms total)
T1E7C 013:065 JLINK_ReadReg(R3)  returns 0x08010AFD (0000ms, 1194ms total)
T1E7C 013:065 JLINK_ReadReg(R4)  returns 0x080155A4 (0000ms, 1194ms total)
T1E7C 013:065 JLINK_ReadReg(R5)  returns 0x080155A4 (0000ms, 1194ms total)
T1E7C 013:065 JLINK_ReadReg(R6)  returns 0x00000000 (0000ms, 1194ms total)
T1E7C 013:065 JLINK_ReadReg(R7)  returns 0x00000000 (0000ms, 1194ms total)
T1E7C 013:065 JLINK_ReadReg(R8)  returns 0x00000000 (0000ms, 1194ms total)
T1E7C 013:065 JLINK_ReadReg(R9)  returns 0x20000160 (0000ms, 1194ms total)
T1E7C 013:065 JLINK_ReadReg(R10)  returns 0x00000000 (0000ms, 1194ms total)
T1E7C 013:065 JLINK_ReadReg(R11)  returns 0x00000000 (0000ms, 1194ms total)
T1E7C 013:065 JLINK_ReadReg(R12)  returns 0x200000C8 (0000ms, 1194ms total)
T1E7C 013:065 JLINK_ReadReg(R13)  returns 0x200028F0 (0000ms, 1194ms total)
T1E7C 013:065 JLINK_ReadReg(R14)  returns 0x0800C251 (0000ms, 1194ms total)
T1E7C 013:065 JLINK_ReadReg(R15)  returns 0x080122B6 (0000ms, 1194ms total)
T1E7C 013:065 JLINK_ReadReg(XPSR)  returns 0x61000000 (0000ms, 1194ms total)
T1E7C 013:065 JLINK_ReadReg(MSP)  returns 0x200028F0 (0000ms, 1194ms total)
T1E7C 013:065 JLINK_ReadReg(PSP)  returns 0x20000800 (0000ms, 1194ms total)
T1E7C 013:065 JLINK_ReadReg(CFBP)  returns 0x00000000 (0000ms, 1194ms total)
T0498 013:066 JLINK_ReadMem (0x200028F4, 0x0004 Bytes, ...) -- CPU_ReadMem(64 bytes @ 0x200028C0) -- Updating C cache (64 bytes @ 0x200028C0) -- Read from C cache (4 bytes @ 0x200028F4) -- Data:  51 C2 00 08  returns 0x00 (0001ms, 1194ms total)
T0498 013:067 JLINK_ReadMemU32(0xE0001004, 0x0001 Items, ...) -- CPU_ReadMem(4 bytes @ 0xE0001004) -- Data:  C7 D5 7C 06  returns 0x01 (0001ms, 1195ms total)
T0498 013:068 JLINK_ReadMem (0x200003B0, 0x0014 Bytes, ...) -- CPU_ReadMem(128 bytes @ 0x20000380) -- Updating C cache (128 bytes @ 0x20000380) -- Read from C cache (20 bytes @ 0x200003B0) -- Data:  00 00 00 00 00 00 00 00 00 00 00 00 00 00 00 00 ...  returns 0x00 (0002ms, 1196ms total)
T0498 013:072 JLINK_ReadMem (0x080122B6, 0x0002 Bytes, ...) -- CPU_ReadMem(64 bytes @ 0x08012280) -- Updating C cache (64 bytes @ 0x08012280) -- Read from C cache (2 bytes @ 0x080122B6) -- Data:  4F F4  returns 0x00 (0001ms, 1198ms total)
T0498 013:073 JLINK_ReadMem (0x080122B8, 0x003C Bytes, ...) -- CPU_ReadMem(64 bytes @ 0x080122C0) -- Updating C cache (64 bytes @ 0x080122C0) -- Read from C cache (60 bytes @ 0x080122B8) -- Data:  40 41 4F F0 00 60 FB F7 A9 F9 1E 48 1F 4A 00 90 ...  returns 0x00 (0002ms, 1199ms total)
T1E7C 013:494 JLINK_Step() -- Read from C cache (2 bytes @ 0x080122B6) -- Not simulated -- CPU_WriteMem(4 bytes @ 0xE0002008) -- CPU_WriteMem(4 bytes @ 0xE000200C) -- CPU_WriteMem(4 bytes @ 0xE0002010) -- CPU_WriteMem(4 bytes @ 0xE0002014) -- CPU_WriteMem(4 bytes @ 0xE0002018) -- CPU_WriteMem(4 bytes @ 0xE000201C)  returns 0x00 (0016ms, 1201ms total)
T1E7C 013:510 JLINK_ReadReg(R15)  returns 0x080122BA (0000ms, 1217ms total)
T1E7C 013:510 JLINK_ReadReg(XPSR)  returns 0x61000000 (0000ms, 1217ms total)
T1E7C 013:510 JLINK_Step() -- CPU_ReadMem(64 bytes @ 0x08012280) -- Updating C cache (64 bytes @ 0x08012280) -- Read from C cache (2 bytes @ 0x080122BA) -- Not simulated -- CPU_WriteMem(4 bytes @ 0xE0002008) -- CPU_WriteMem(4 bytes @ 0xE000200C) -- CPU_WriteMem(4 bytes @ 0xE0002010) -- CPU_WriteMem(4 bytes @ 0xE0002014) -- CPU_WriteMem(4 bytes @ 0xE0002018) -- CPU_WriteMem(4 bytes @ 0xE000201C)  returns 0x00 (0016ms, 1217ms total)
T1E7C 013:526 JLINK_ReadReg(R15)  returns 0x080122BE (0000ms, 1233ms total)
T1E7C 013:526 JLINK_ReadReg(XPSR)  returns 0x61000000 (0000ms, 1233ms total)
T1E7C 013:526 JLINK_SetBPEx(Addr = 0x080122C2, Type = 0xFFFFFFF2)  returns 0x00000002 (0000ms, 1233ms total)
T1E7C 013:526 JLINK_Go() -- CPU_WriteMem(4 bytes @ 0xE0002008) -- CPU_WriteMem(4 bytes @ 0xE000200C) -- CPU_WriteMem(4 bytes @ 0xE0002010) -- CPU_WriteMem(4 bytes @ 0xE0002014) -- CPU_WriteMem(4 bytes @ 0xE0002018) -- CPU_WriteMem(4 bytes @ 0xE000201C) (0007ms, 1233ms total)
T1E7C 013:633 JLINK_IsHalted()  returns TRUE (0005ms, 1240ms total)
T1E7C 013:638 JLINK_Halt()  returns 0x00 (0000ms, 1240ms total)
T1E7C 013:638 JLINK_IsHalted()  returns TRUE (0000ms, 1240ms total)
T1E7C 013:638 JLINK_IsHalted()  returns TRUE (0000ms, 1240ms total)
T1E7C 013:638 JLINK_IsHalted()  returns TRUE (0000ms, 1240ms total)
T1E7C 013:638 JLINK_ReadReg(R15)  returns 0x080122C2 (0000ms, 1240ms total)
T1E7C 013:638 JLINK_ReadReg(XPSR)  returns 0x21000000 (0000ms, 1240ms total)
T1E7C 013:638 JLINK_ClrBPEx(BPHandle = 0x00000002)  returns 0x00 (0000ms, 1240ms total)
T1E7C 013:638 JLINK_ReadMemU32(0xE000ED30, 0x0001 Items, ...) -- CPU_ReadMem(4 bytes @ 0xE000ED30) -- Data:  03 00 00 00  returns 0x01 (0001ms, 1240ms total)
T1E7C 013:639 JLINK_ReadMemU32(0xE0001028, 0x0001 Items, ...) -- CPU_ReadMem(4 bytes @ 0xE0001028) -- Data:  00 00 00 00  returns 0x01 (0001ms, 1241ms total)
T1E7C 013:640 JLINK_ReadMemU32(0xE0001038, 0x0001 Items, ...) -- CPU_ReadMem(4 bytes @ 0xE0001038) -- Data:  00 02 00 00  returns 0x01 (0001ms, 1242ms total)
T1E7C 013:641 JLINK_ReadMemU32(0xE0001048, 0x0001 Items, ...) -- CPU_ReadMem(4 bytes @ 0xE0001048) -- Data:  00 00 00 00  returns 0x01 (0001ms, 1243ms total)
T1E7C 013:642 JLINK_ReadMemU32(0xE0001058, 0x0001 Items, ...) -- CPU_ReadMem(4 bytes @ 0xE0001058) -- Data:  00 00 00 00  returns 0x01 (0001ms, 1244ms total)
T1E7C 013:643 JLINK_ReadReg(R0)  returns 0xE000ED08 (0000ms, 1245ms total)
T1E7C 013:643 JLINK_ReadReg(R1)  returns 0x0800C000 (0000ms, 1245ms total)
T1E7C 013:643 JLINK_ReadReg(R2)  returns 0x1FFFFF80 (0000ms, 1245ms total)
T1E7C 013:643 JLINK_ReadReg(R3)  returns 0x08010AFD (0000ms, 1245ms total)
T1E7C 013:643 JLINK_ReadReg(R4)  returns 0x080155A4 (0000ms, 1245ms total)
T1E7C 013:643 JLINK_ReadReg(R5)  returns 0x080155A4 (0000ms, 1245ms total)
T1E7C 013:643 JLINK_ReadReg(R6)  returns 0x00000000 (0000ms, 1245ms total)
T1E7C 013:643 JLINK_ReadReg(R7)  returns 0x00000000 (0000ms, 1245ms total)
T1E7C 013:643 JLINK_ReadReg(R8)  returns 0x00000000 (0000ms, 1245ms total)
T1E7C 013:643 JLINK_ReadReg(R9)  returns 0x20000160 (0000ms, 1245ms total)
T1E7C 013:643 JLINK_ReadReg(R10)  returns 0x00000000 (0000ms, 1245ms total)
T1E7C 013:643 JLINK_ReadReg(R11)  returns 0x00000000 (0000ms, 1245ms total)
T1E7C 013:643 JLINK_ReadReg(R12)  returns 0x200000C8 (0000ms, 1245ms total)
T1E7C 013:643 JLINK_ReadReg(R13)  returns 0x200028F0 (0000ms, 1245ms total)
T1E7C 013:643 JLINK_ReadReg(R14)  returns 0x080122C3 (0000ms, 1245ms total)
T1E7C 013:643 JLINK_ReadReg(R15)  returns 0x080122C2 (0000ms, 1245ms total)
T1E7C 013:643 JLINK_ReadReg(XPSR)  returns 0x21000000 (0000ms, 1245ms total)
T1E7C 013:643 JLINK_ReadReg(MSP)  returns 0x200028F0 (0000ms, 1245ms total)
T1E7C 013:643 JLINK_ReadReg(PSP)  returns 0x20000800 (0000ms, 1245ms total)
T1E7C 013:643 JLINK_ReadReg(CFBP)  returns 0x00000000 (0000ms, 1245ms total)
T0498 013:644 JLINK_ReadMem (0x200028F4, 0x0004 Bytes, ...) -- CPU_ReadMem(64 bytes @ 0x200028C0) -- Updating C cache (64 bytes @ 0x200028C0) -- Read from C cache (4 bytes @ 0x200028F4) -- Data:  51 C2 00 08  returns 0x00 (0001ms, 1245ms total)
T0498 013:645 JLINK_ReadMemU32(0xE0001004, 0x0001 Items, ...) -- CPU_ReadMem(4 bytes @ 0xE0001004) -- Data:  E2 D5 7C 06  returns 0x01 (0001ms, 1246ms total)
T0498 013:646 JLINK_ReadMem (0x200003B0, 0x0014 Bytes, ...) -- CPU_ReadMem(128 bytes @ 0x20000380) -- Updating C cache (128 bytes @ 0x20000380) -- Read from C cache (20 bytes @ 0x200003B0) -- Data:  00 00 00 00 00 00 00 00 00 00 00 00 00 00 00 00 ...  returns 0x00 (0002ms, 1247ms total)
T1E7C 013:983 JLINK_ReadMem (0x080122C2, 0x0002 Bytes, ...) -- CPU_ReadMem(64 bytes @ 0x080122C0) -- Updating C cache (64 bytes @ 0x080122C0) -- Read from C cache (2 bytes @ 0x080122C2) -- Data:  1E 48  returns 0x00 (0001ms, 1249ms total)
T1E7C 013:984 JLINK_ReadMem (0x080122C4, 0x003C Bytes, ...) -- Read from C cache (60 bytes @ 0x080122C4) -- Data:  1F 4A 00 90 1D 4B 01 21 A2 F2 AC 50 FC F7 10 F9 ...  returns 0x00 (0000ms, 1250ms total)
T1E7C 013:985 JLINK_Step() -- Read from C cache (2 bytes @ 0x080122C2) -- Not simulated -- CPU_WriteMem(4 bytes @ 0xE0002008) -- CPU_WriteMem(4 bytes @ 0xE000200C) -- CPU_WriteMem(4 bytes @ 0xE0002010) -- CPU_WriteMem(4 bytes @ 0xE0002014) -- CPU_WriteMem(4 bytes @ 0xE0002018) -- CPU_WriteMem(4 bytes @ 0xE000201C)  returns 0x00 (0013ms, 1250ms total)
T1E7C 013:998 JLINK_ReadReg(R15)  returns 0x080122C4 (0000ms, 1263ms total)
T1E7C 013:998 JLINK_ReadReg(XPSR)  returns 0x21000000 (0000ms, 1263ms total)
T1E7C 013:998 JLINK_Step() -- CPU_ReadMem(64 bytes @ 0x080122C0) -- Updating C cache (64 bytes @ 0x080122C0) -- Read from C cache (2 bytes @ 0x080122C4) -- Not simulated -- CPU_WriteMem(4 bytes @ 0xE0002008) -- CPU_WriteMem(4 bytes @ 0xE000200C) -- CPU_WriteMem(4 bytes @ 0xE0002010) -- CPU_WriteMem(4 bytes @ 0xE0002014) -- CPU_WriteMem(4 bytes @ 0xE0002018) -- CPU_WriteMem(4 bytes @ 0xE000201C)  returns 0x00 (0015ms, 1263ms total)
T1E7C 014:013 JLINK_ReadReg(R15)  returns 0x080122C6 (0000ms, 1278ms total)
T1E7C 014:013 JLINK_ReadReg(XPSR)  returns 0x21000000 (0000ms, 1278ms total)
T1E7C 014:013 JLINK_Step() -- CPU_ReadMem(64 bytes @ 0x080122C0) -- Updating C cache (64 bytes @ 0x080122C0) -- Read from C cache (2 bytes @ 0x080122C6) -- Not simulated -- CPU_WriteMem(4 bytes @ 0xE0002008) -- CPU_WriteMem(4 bytes @ 0xE000200C) -- CPU_WriteMem(4 bytes @ 0xE0002010) -- CPU_WriteMem(4 bytes @ 0xE0002014) -- CPU_WriteMem(4 bytes @ 0xE0002018) -- CPU_WriteMem(4 bytes @ 0xE000201C)  returns 0x00 (0015ms, 1278ms total)
T1E7C 014:028 JLINK_ReadReg(R15)  returns 0x080122C8 (0000ms, 1293ms total)
T1E7C 014:028 JLINK_ReadReg(XPSR)  returns 0x21000000 (0000ms, 1293ms total)
T1E7C 014:028 JLINK_Step() -- CPU_ReadMem(64 bytes @ 0x080122C0) -- Updating C cache (64 bytes @ 0x080122C0) -- Read from C cache (2 bytes @ 0x080122C8) -- Not simulated -- CPU_WriteMem(4 bytes @ 0xE0002008) -- CPU_WriteMem(4 bytes @ 0xE000200C) -- CPU_WriteMem(4 bytes @ 0xE0002010) -- CPU_WriteMem(4 bytes @ 0xE0002014) -- CPU_WriteMem(4 bytes @ 0xE0002018) -- CPU_WriteMem(4 bytes @ 0xE000201C)  returns 0x00 (0015ms, 1293ms total)
T1E7C 014:043 JLINK_ReadReg(R15)  returns 0x080122CA (0000ms, 1308ms total)
T1E7C 014:043 JLINK_ReadReg(XPSR)  returns 0x21000000 (0000ms, 1308ms total)
T1E7C 014:043 JLINK_Step() -- CPU_ReadMem(64 bytes @ 0x080122C0) -- Updating C cache (64 bytes @ 0x080122C0) -- Read from C cache (2 bytes @ 0x080122CA) -- Simulated  returns 0x00 (0002ms, 1308ms total)
T1E7C 014:045 JLINK_ReadReg(R15)  returns 0x080122CC (0000ms, 1310ms total)
T1E7C 014:045 JLINK_ReadReg(XPSR)  returns 0x21000000 (0000ms, 1310ms total)
T1E7C 014:045 JLINK_Step() -- Read from C cache (2 bytes @ 0x080122CC) -- Not simulated -- CPU_WriteMem(4 bytes @ 0xE0002008) -- CPU_WriteMem(4 bytes @ 0xE000200C) -- CPU_WriteMem(4 bytes @ 0xE0002010) -- CPU_WriteMem(4 bytes @ 0xE0002014) -- CPU_WriteMem(4 bytes @ 0xE0002018) -- CPU_WriteMem(4 bytes @ 0xE000201C)  returns 0x00 (0013ms, 1310ms total)
T1E7C 014:058 JLINK_ReadReg(R15)  returns 0x080122D0 (0001ms, 1323ms total)
T1E7C 014:059 JLINK_ReadReg(XPSR)  returns 0x21000000 (0000ms, 1324ms total)
T1E7C 014:059 JLINK_SetBPEx(Addr = 0x080122D4, Type = 0xFFFFFFF2)  returns 0x00000003 (0000ms, 1324ms total)
T1E7C 014:059 JLINK_Go() -- CPU_WriteMem(4 bytes @ 0xE0002008) -- CPU_WriteMem(4 bytes @ 0xE000200C) -- CPU_WriteMem(4 bytes @ 0xE0002010) -- CPU_WriteMem(4 bytes @ 0xE0002014) -- CPU_WriteMem(4 bytes @ 0xE0002018) -- CPU_WriteMem(4 bytes @ 0xE000201C) (0007ms, 1324ms total)
T1E7C 014:167 JLINK_IsHalted()  returns FALSE (0014ms, 1331ms total)
T1E7C 014:281 JLINK_IsHalted()  returns FALSE (0001ms, 1331ms total)
T1E7C 014:382 JLINK_IsHalted()  returns FALSE (0001ms, 1331ms total)
T1E7C 014:483 JLINK_IsHalted()  returns FALSE (0001ms, 1331ms total)
T1E7C 014:584 JLINK_IsHalted()  returns FALSE (0001ms, 1331ms total)
T1E7C 014:685 JLINK_IsHalted()  returns FALSE (0001ms, 1331ms total)
T1E7C 014:786 JLINK_IsHalted()  returns FALSE (0001ms, 1331ms total)
T1E7C 014:887 JLINK_IsHalted()  returns FALSE (0001ms, 1331ms total)
T1E7C 014:988 JLINK_IsHalted()  returns FALSE (0001ms, 1331ms total)
T1E7C 015:089 JLINK_IsHalted()  returns FALSE (0002ms, 1331ms total)
T1E7C 015:191 JLINK_IsHalted()  returns FALSE (0001ms, 1331ms total)
T1E7C 015:292 JLINK_IsHalted()  returns FALSE (0001ms, 1331ms total)
T1E7C 015:393 JLINK_IsHalted()  returns TRUE (0005ms, 1331ms total)
T1E7C 015:398 JLINK_Halt()  returns 0x00 (0000ms, 1331ms total)
T1E7C 015:398 JLINK_IsHalted()  returns TRUE (0000ms, 1331ms total)
T1E7C 015:398 JLINK_IsHalted()  returns TRUE (0000ms, 1331ms total)
T1E7C 015:398 JLINK_IsHalted()  returns TRUE (0000ms, 1331ms total)
T1E7C 015:398 JLINK_ReadReg(R15)  returns 0x080122D4 (0000ms, 1331ms total)
T1E7C 015:398 JLINK_ReadReg(XPSR)  returns 0x01000000 (0000ms, 1331ms total)
T1E7C 015:398 JLINK_ClrBPEx(BPHandle = 0x00000003)  returns 0x00 (0000ms, 1331ms total)
T1E7C 015:398 JLINK_ReadMemU32(0xE000ED30, 0x0001 Items, ...) -- CPU_ReadMem(4 bytes @ 0xE000ED30) -- Data:  03 00 00 00  returns 0x01 (0002ms, 1331ms total)
T1E7C 015:400 JLINK_ReadMemU32(0xE0001028, 0x0001 Items, ...) -- CPU_ReadMem(4 bytes @ 0xE0001028) -- Data:  00 00 00 00  returns 0x01 (0001ms, 1333ms total)
T1E7C 015:401 JLINK_ReadMemU32(0xE0001038, 0x0001 Items, ...) -- CPU_ReadMem(4 bytes @ 0xE0001038) -- Data:  00 02 00 00  returns 0x01 (0001ms, 1334ms total)
T1E7C 015:402 JLINK_ReadMemU32(0xE0001048, 0x0001 Items, ...) -- CPU_ReadMem(4 bytes @ 0xE0001048) -- Data:  00 00 00 00  returns 0x01 (0001ms, 1335ms total)
T1E7C 015:403 JLINK_ReadMemU32(0xE0001058, 0x0001 Items, ...) -- CPU_ReadMem(4 bytes @ 0xE0001058) -- Data:  00 00 00 00  returns 0x01 (0001ms, 1336ms total)
T1E7C 015:404 JLINK_ReadReg(R0)  returns 0xE000E008 (0000ms, 1337ms total)
T1E7C 015:404 JLINK_ReadReg(R1)  returns 0x00000003 (0000ms, 1337ms total)
T1E7C 015:404 JLINK_ReadReg(R2)  returns 0x00000043 (0000ms, 1337ms total)
T1E7C 015:404 JLINK_ReadReg(R3)  returns 0x01030143 (0000ms, 1337ms total)
T1E7C 015:404 JLINK_ReadReg(R4)  returns 0x080155A4 (0000ms, 1337ms total)
T1E7C 015:404 JLINK_ReadReg(R5)  returns 0x080155A4 (0000ms, 1337ms total)
T1E7C 015:404 JLINK_ReadReg(R6)  returns 0x00000000 (0000ms, 1337ms total)
T1E7C 015:404 JLINK_ReadReg(R7)  returns 0x00000000 (0000ms, 1337ms total)
T1E7C 015:404 JLINK_ReadReg(R8)  returns 0x00000000 (0000ms, 1337ms total)
T1E7C 015:404 JLINK_ReadReg(R9)  returns 0x20000160 (0000ms, 1337ms total)
T1E7C 015:404 JLINK_ReadReg(R10)  returns 0x00000000 (0000ms, 1337ms total)
T1E7C 015:404 JLINK_ReadReg(R11)  returns 0x00000000 (0000ms, 1337ms total)
T1E7C 015:404 JLINK_ReadReg(R12)  returns 0x20002082 (0000ms, 1337ms total)
T1E7C 015:404 JLINK_ReadReg(R13)  returns 0x200028F0 (0000ms, 1337ms total)
T1E7C 015:404 JLINK_ReadReg(R14)  returns 0x0800F4CF (0000ms, 1337ms total)
T1E7C 015:404 JLINK_ReadReg(R15)  returns 0x080122D4 (0000ms, 1337ms total)
T1E7C 015:404 JLINK_ReadReg(XPSR)  returns 0x01000000 (0000ms, 1337ms total)
T1E7C 015:404 JLINK_ReadReg(MSP)  returns 0x200028F0 (0000ms, 1337ms total)
T1E7C 015:405 JLINK_ReadReg(PSP)  returns 0x20000800 (0000ms, 1337ms total)
T1E7C 015:405 JLINK_ReadReg(CFBP)  returns 0x00000000 (0000ms, 1337ms total)
T0498 015:405 JLINK_ReadMem (0x200028F4, 0x0004 Bytes, ...) -- CPU_ReadMem(64 bytes @ 0x200028C0) -- Updating C cache (64 bytes @ 0x200028C0) -- Read from C cache (4 bytes @ 0x200028F4) -- Data:  51 C2 00 08  returns 0x00 (0002ms, 1337ms total)
T0498 015:407 JLINK_ReadMemU32(0xE0001004, 0x0001 Items, ...) -- CPU_ReadMem(4 bytes @ 0xE0001004) -- Data:  C4 80 23 0C  returns 0x01 (0001ms, 1339ms total)
T0498 015:408 JLINK_ReadMem (0x200003B0, 0x0014 Bytes, ...) -- CPU_ReadMem(128 bytes @ 0x20000380) -- Updating C cache (128 bytes @ 0x20000380) -- Read from C cache (20 bytes @ 0x200003B0) -- Data:  00 00 00 00 00 00 00 00 00 00 00 00 00 00 00 00 ...  returns 0x00 (0002ms, 1340ms total)
T0498 015:415 JLINK_ReadMem (0x080122D4, 0x003C Bytes, ...) -- CPU_ReadMem(128 bytes @ 0x080122C0) -- Updating C cache (128 bytes @ 0x080122C0) -- Read from C cache (60 bytes @ 0x080122D4) -- Data:  FF F7 8A FE FE F7 E4 FF FF F7 16 FC 4F F4 80 61 ...  returns 0x00 (0002ms, 1342ms total)
T1E7C 016:021 JLINK_SetBPEx(Addr = 0x080122D8, Type = 0xFFFFFFF2)  returns 0x00000004 (0000ms, 1344ms total)
T1E7C 016:021 JLINK_Go() -- CPU_WriteMem(4 bytes @ 0xE0002008) -- CPU_WriteMem(4 bytes @ 0xE000200C) -- CPU_WriteMem(4 bytes @ 0xE0002010) -- CPU_WriteMem(4 bytes @ 0xE0002014) -- CPU_WriteMem(4 bytes @ 0xE0002018) -- CPU_WriteMem(4 bytes @ 0xE000201C) (0008ms, 1344ms total)
T1E7C 016:129 JLINK_IsHalted()  returns TRUE (0007ms, 1352ms total)
T1E7C 016:136 JLINK_Halt()  returns 0x00 (0000ms, 1352ms total)
T1E7C 016:136 JLINK_IsHalted()  returns TRUE (0000ms, 1352ms total)
T1E7C 016:136 JLINK_IsHalted()  returns TRUE (0000ms, 1352ms total)
T1E7C 016:136 JLINK_IsHalted()  returns TRUE (0000ms, 1352ms total)
T1E7C 016:136 JLINK_ReadReg(R15)  returns 0x080122D8 (0000ms, 1352ms total)
T1E7C 016:136 JLINK_ReadReg(XPSR)  returns 0x81000000 (0000ms, 1352ms total)
T1E7C 016:136 JLINK_ClrBPEx(BPHandle = 0x00000004)  returns 0x00 (0000ms, 1352ms total)
T1E7C 016:136 JLINK_ReadMemU32(0xE000ED30, 0x0001 Items, ...) -- CPU_ReadMem(4 bytes @ 0xE000ED30) -- Data:  03 00 00 00  returns 0x01 (0002ms, 1352ms total)
T1E7C 016:138 JLINK_ReadMemU32(0xE0001028, 0x0001 Items, ...) -- CPU_ReadMem(4 bytes @ 0xE0001028) -- Data:  00 00 00 00  returns 0x01 (0001ms, 1354ms total)
T1E7C 016:139 JLINK_ReadMemU32(0xE0001038, 0x0001 Items, ...) -- CPU_ReadMem(4 bytes @ 0xE0001038) -- Data:  00 02 00 00  returns 0x01 (0000ms, 1355ms total)
T1E7C 016:139 JLINK_ReadMemU32(0xE0001048, 0x0001 Items, ...) -- CPU_ReadMem(4 bytes @ 0xE0001048) -- Data:  00 00 00 00  returns 0x01 (0002ms, 1355ms total)
T1E7C 016:141 JLINK_ReadMemU32(0xE0001058, 0x0001 Items, ...) -- CPU_ReadMem(4 bytes @ 0xE0001058) -- Data:  00 00 00 00  returns 0x01 (0001ms, 1357ms total)
T1E7C 016:142 JLINK_ReadReg(R0)  returns 0x40011000 (0000ms, 1358ms total)
T1E7C 016:142 JLINK_ReadReg(R1)  returns 0x200028D8 (0000ms, 1358ms total)
T1E7C 016:142 JLINK_ReadReg(R2)  returns 0x00000004 (0000ms, 1358ms total)
T1E7C 016:142 JLINK_ReadReg(R3)  returns 0x04030080 (0000ms, 1358ms total)
T1E7C 016:142 JLINK_ReadReg(R4)  returns 0x080155A4 (0000ms, 1358ms total)
T1E7C 016:142 JLINK_ReadReg(R5)  returns 0x080155A4 (0000ms, 1358ms total)
T1E7C 016:142 JLINK_ReadReg(R6)  returns 0x00000000 (0000ms, 1358ms total)
T1E7C 016:142 JLINK_ReadReg(R7)  returns 0x00000000 (0000ms, 1358ms total)
T1E7C 016:142 JLINK_ReadReg(R8)  returns 0x00000000 (0000ms, 1358ms total)
T1E7C 016:142 JLINK_ReadReg(R9)  returns 0x20000160 (0000ms, 1358ms total)
T1E7C 016:142 JLINK_ReadReg(R10)  returns 0x00000000 (0000ms, 1358ms total)
T1E7C 016:142 JLINK_ReadReg(R11)  returns 0x00000000 (0000ms, 1358ms total)
T1E7C 016:142 JLINK_ReadReg(R12)  returns 0x00000001 (0000ms, 1358ms total)
T1E7C 016:142 JLINK_ReadReg(R13)  returns 0x200028F0 (0000ms, 1358ms total)
T1E7C 016:142 JLINK_ReadReg(R14)  returns 0x08012087 (0000ms, 1358ms total)
T1E7C 016:142 JLINK_ReadReg(R15)  returns 0x080122D8 (0000ms, 1358ms total)
T1E7C 016:142 JLINK_ReadReg(XPSR)  returns 0x81000000 (0000ms, 1358ms total)
T1E7C 016:142 JLINK_ReadReg(MSP)  returns 0x200028F0 (0000ms, 1358ms total)
T1E7C 016:142 JLINK_ReadReg(PSP)  returns 0x20000800 (0000ms, 1358ms total)
T1E7C 016:142 JLINK_ReadReg(CFBP)  returns 0x00000000 (0000ms, 1358ms total)
T0498 016:143 JLINK_ReadMem (0x200028F4, 0x0004 Bytes, ...) -- CPU_ReadMem(64 bytes @ 0x200028C0) -- Updating C cache (64 bytes @ 0x200028C0) -- Read from C cache (4 bytes @ 0x200028F4) -- Data:  51 C2 00 08  returns 0x00 (0001ms, 1358ms total)
T0498 016:144 JLINK_ReadMemU32(0xE0001004, 0x0001 Items, ...) -- CPU_ReadMem(4 bytes @ 0xE0001004) -- Data:  48 88 23 0C  returns 0x01 (0001ms, 1359ms total)
T0498 016:145 JLINK_ReadMem (0x200003B0, 0x0014 Bytes, ...) -- CPU_ReadMem(128 bytes @ 0x20000380) -- Updating C cache (128 bytes @ 0x20000380) -- Read from C cache (20 bytes @ 0x200003B0) -- Data:  00 00 00 00 00 00 00 00 00 00 00 00 00 00 00 00 ...  returns 0x00 (0003ms, 1360ms total)
T1E7C 016:504 JLINK_ReadMem (0x080122D8, 0x003C Bytes, ...) -- CPU_ReadMem(128 bytes @ 0x080122C0) -- Updating C cache (128 bytes @ 0x080122C0) -- Read from C cache (60 bytes @ 0x080122D8) -- Data:  FE F7 E4 FF FF F7 16 FC 4F F4 80 61 18 48 FA F7 ...  returns 0x00 (0003ms, 1363ms total)
T1E7C 016:507 JLINK_SetBPEx(Addr = 0x080122DC, Type = 0xFFFFFFF2)  returns 0x00000005 (0000ms, 1366ms total)
T1E7C 016:507 JLINK_Go() -- CPU_WriteMem(4 bytes @ 0xE0002008) -- CPU_WriteMem(4 bytes @ 0xE000200C) -- CPU_WriteMem(4 bytes @ 0xE0002010) -- CPU_WriteMem(4 bytes @ 0xE0002014) -- CPU_WriteMem(4 bytes @ 0xE0002018) -- CPU_WriteMem(4 bytes @ 0xE000201C) (0011ms, 1366ms total)
T1E7C 016:618 JLINK_IsHalted()  returns TRUE (0005ms, 1377ms total)
T1E7C 016:623 JLINK_Halt()  returns 0x00 (0000ms, 1377ms total)
T1E7C 016:623 JLINK_IsHalted()  returns TRUE (0000ms, 1377ms total)
T1E7C 016:623 JLINK_IsHalted()  returns TRUE (0000ms, 1377ms total)
T1E7C 016:623 JLINK_IsHalted()  returns TRUE (0000ms, 1377ms total)
T1E7C 016:623 JLINK_ReadReg(R15)  returns 0x080122DC (0000ms, 1377ms total)
T1E7C 016:623 JLINK_ReadReg(XPSR)  returns 0x01000000 (0000ms, 1377ms total)
T1E7C 016:623 JLINK_ClrBPEx(BPHandle = 0x00000005)  returns 0x00 (0000ms, 1377ms total)
T1E7C 016:623 JLINK_ReadMemU32(0xE000ED30, 0x0001 Items, ...) -- CPU_ReadMem(4 bytes @ 0xE000ED30) -- Data:  03 00 00 00  returns 0x01 (0001ms, 1377ms total)
T1E7C 016:624 JLINK_ReadMemU32(0xE0001028, 0x0001 Items, ...) -- CPU_ReadMem(4 bytes @ 0xE0001028) -- Data:  00 00 00 00  returns 0x01 (0001ms, 1378ms total)
T1E7C 016:625 JLINK_ReadMemU32(0xE0001038, 0x0001 Items, ...) -- CPU_ReadMem(4 bytes @ 0xE0001038) -- Data:  00 02 00 00  returns 0x01 (0001ms, 1379ms total)
T1E7C 016:626 JLINK_ReadMemU32(0xE0001048, 0x0001 Items, ...) -- CPU_ReadMem(4 bytes @ 0xE0001048) -- Data:  00 00 00 00  returns 0x01 (0001ms, 1380ms total)
T1E7C 016:627 JLINK_ReadMemU32(0xE0001058, 0x0001 Items, ...) -- CPU_ReadMem(4 bytes @ 0xE0001058) -- Data:  00 00 00 00  returns 0x01 (0001ms, 1381ms total)
T1E7C 016:628 JLINK_ReadReg(R0)  returns 0x40010C00 (0000ms, 1382ms total)
T1E7C 016:628 JLINK_ReadReg(R1)  returns 0x00000020 (0000ms, 1382ms total)
T1E7C 016:628 JLINK_ReadReg(R2)  returns 0x00000004 (0000ms, 1382ms total)
T1E7C 016:628 JLINK_ReadReg(R3)  returns 0x04030080 (0000ms, 1382ms total)
T1E7C 016:628 JLINK_ReadReg(R4)  returns 0x080155A4 (0000ms, 1382ms total)
T1E7C 016:628 JLINK_ReadReg(R5)  returns 0x080155A4 (0000ms, 1382ms total)
T1E7C 016:628 JLINK_ReadReg(R6)  returns 0x00000000 (0000ms, 1382ms total)
T1E7C 016:628 JLINK_ReadReg(R7)  returns 0x00000000 (0000ms, 1382ms total)
T1E7C 016:628 JLINK_ReadReg(R8)  returns 0x00000000 (0000ms, 1382ms total)
T1E7C 016:628 JLINK_ReadReg(R9)  returns 0x20000160 (0000ms, 1382ms total)
T1E7C 016:628 JLINK_ReadReg(R10)  returns 0x00000000 (0000ms, 1382ms total)
T1E7C 016:628 JLINK_ReadReg(R11)  returns 0x00000000 (0000ms, 1382ms total)
T1E7C 016:628 JLINK_ReadReg(R12)  returns 0x00000001 (0000ms, 1382ms total)
T1E7C 016:628 JLINK_ReadReg(R13)  returns 0x200028F0 (0000ms, 1382ms total)
T1E7C 016:628 JLINK_ReadReg(R14)  returns 0x080122DD (0000ms, 1382ms total)
T1E7C 016:628 JLINK_ReadReg(R15)  returns 0x080122DC (0000ms, 1382ms total)
T1E7C 016:628 JLINK_ReadReg(XPSR)  returns 0x01000000 (0000ms, 1382ms total)
T1E7C 016:628 JLINK_ReadReg(MSP)  returns 0x200028F0 (0000ms, 1382ms total)
T1E7C 016:628 JLINK_ReadReg(PSP)  returns 0x20000800 (0000ms, 1382ms total)
T1E7C 016:628 JLINK_ReadReg(CFBP)  returns 0x00000000 (0000ms, 1382ms total)
T0498 016:628 JLINK_ReadMem (0x200028F4, 0x0004 Bytes, ...) -- CPU_ReadMem(64 bytes @ 0x200028C0) -- Updating C cache (64 bytes @ 0x200028C0) -- Read from C cache (4 bytes @ 0x200028F4) -- Data:  51 C2 00 08  returns 0x00 (0002ms, 1382ms total)
T0498 016:630 JLINK_ReadMemU32(0xE0001004, 0x0001 Items, ...) -- CPU_ReadMem(4 bytes @ 0xE0001004) -- Data:  5D 88 23 0C  returns 0x01 (0001ms, 1384ms total)
T0498 016:631 JLINK_ReadMem (0x200003B0, 0x0014 Bytes, ...) -- CPU_ReadMem(128 bytes @ 0x20000380) -- Updating C cache (128 bytes @ 0x20000380) -- Read from C cache (20 bytes @ 0x200003B0) -- Data:  00 00 00 00 00 00 00 00 00 00 00 00 00 00 00 00 ...  returns 0x00 (0002ms, 1385ms total)
T0498 016:635 JLINK_ReadMem (0x080122DC, 0x003C Bytes, ...) -- CPU_ReadMem(128 bytes @ 0x080122C0) -- Updating C cache (128 bytes @ 0x080122C0) -- Read from C cache (60 bytes @ 0x080122DC) -- Data:  FF F7 16 FC 4F F4 80 61 18 48 FA F7 56 F9 00 F0 ...  returns 0x00 (0002ms, 1387ms total)
T1E7C 016:888 JLINK_SetBPEx(Addr = 0x080122E0, Type = 0xFFFFFFF2)  returns 0x00000006 (0000ms, 1389ms total)
T1E7C 016:888 JLINK_Go() -- CPU_WriteMem(4 bytes @ 0xE0002008) -- CPU_WriteMem(4 bytes @ 0xE000200C) -- CPU_WriteMem(4 bytes @ 0xE0002010) -- CPU_WriteMem(4 bytes @ 0xE0002014) -- CPU_WriteMem(4 bytes @ 0xE0002018) -- CPU_WriteMem(4 bytes @ 0xE000201C) (0008ms, 1389ms total)
T1E7C 016:996 JLINK_IsHalted()  returns TRUE (0006ms, 1397ms total)
T1E7C 017:002 JLINK_Halt()  returns 0x00 (0000ms, 1397ms total)
T1E7C 017:002 JLINK_IsHalted()  returns TRUE (0000ms, 1397ms total)
T1E7C 017:002 JLINK_IsHalted()  returns TRUE (0000ms, 1397ms total)
T1E7C 017:002 JLINK_IsHalted()  returns TRUE (0000ms, 1397ms total)
T1E7C 017:002 JLINK_ReadReg(R15)  returns 0x080122E0 (0000ms, 1397ms total)
T1E7C 017:002 JLINK_ReadReg(XPSR)  returns 0x01000000 (0000ms, 1397ms total)
T1E7C 017:002 JLINK_ClrBPEx(BPHandle = 0x00000006)  returns 0x00 (0000ms, 1397ms total)
T1E7C 017:002 JLINK_ReadMemU32(0xE000ED30, 0x0001 Items, ...) -- CPU_ReadMem(4 bytes @ 0xE000ED30) -- Data:  03 00 00 00  returns 0x01 (0002ms, 1397ms total)
T1E7C 017:004 JLINK_ReadMemU32(0xE0001028, 0x0001 Items, ...) -- CPU_ReadMem(4 bytes @ 0xE0001028) -- Data:  00 00 00 00  returns 0x01 (0001ms, 1399ms total)
T1E7C 017:005 JLINK_ReadMemU32(0xE0001038, 0x0001 Items, ...) -- CPU_ReadMem(4 bytes @ 0xE0001038) -- Data:  00 02 00 00  returns 0x01 (0001ms, 1400ms total)
T1E7C 017:006 JLINK_ReadMemU32(0xE0001048, 0x0001 Items, ...) -- CPU_ReadMem(4 bytes @ 0xE0001048) -- Data:  00 00 00 00  returns 0x01 (0001ms, 1401ms total)
T1E7C 017:007 JLINK_ReadMemU32(0xE0001058, 0x0001 Items, ...) -- CPU_ReadMem(4 bytes @ 0xE0001058) -- Data:  00 00 00 00  returns 0x01 (0001ms, 1402ms total)
T1E7C 017:008 JLINK_ReadReg(R0)  returns 0x40010800 (0000ms, 1403ms total)
T1E7C 017:008 JLINK_ReadReg(R1)  returns 0x00000100 (0000ms, 1403ms total)
T1E7C 017:008 JLINK_ReadReg(R2)  returns 0x00000004 (0000ms, 1403ms total)
T1E7C 017:008 JLINK_ReadReg(R3)  returns 0x04030080 (0000ms, 1403ms total)
T1E7C 017:008 JLINK_ReadReg(R4)  returns 0x080155A4 (0000ms, 1403ms total)
T1E7C 017:008 JLINK_ReadReg(R5)  returns 0x080155A4 (0000ms, 1403ms total)
T1E7C 017:008 JLINK_ReadReg(R6)  returns 0x00000000 (0000ms, 1403ms total)
T1E7C 017:008 JLINK_ReadReg(R7)  returns 0x00000000 (0000ms, 1403ms total)
T1E7C 017:008 JLINK_ReadReg(R8)  returns 0x00000000 (0000ms, 1403ms total)
T1E7C 017:008 JLINK_ReadReg(R9)  returns 0x20000160 (0000ms, 1403ms total)
T1E7C 017:008 JLINK_ReadReg(R10)  returns 0x00000000 (0000ms, 1403ms total)
T1E7C 017:008 JLINK_ReadReg(R11)  returns 0x00000000 (0000ms, 1403ms total)
T1E7C 017:008 JLINK_ReadReg(R12)  returns 0x00000001 (0000ms, 1403ms total)
T1E7C 017:008 JLINK_ReadReg(R13)  returns 0x200028F0 (0000ms, 1403ms total)
T1E7C 017:008 JLINK_ReadReg(R14)  returns 0x080122E1 (0000ms, 1403ms total)
T1E7C 017:008 JLINK_ReadReg(R15)  returns 0x080122E0 (0000ms, 1403ms total)
T1E7C 017:008 JLINK_ReadReg(XPSR)  returns 0x01000000 (0000ms, 1403ms total)
T1E7C 017:008 JLINK_ReadReg(MSP)  returns 0x200028F0 (0000ms, 1403ms total)
T1E7C 017:008 JLINK_ReadReg(PSP)  returns 0x20000800 (0000ms, 1403ms total)
T1E7C 017:008 JLINK_ReadReg(CFBP)  returns 0x00000000 (0000ms, 1403ms total)
T0498 017:009 JLINK_ReadMem (0x200028F4, 0x0004 Bytes, ...) -- CPU_ReadMem(64 bytes @ 0x200028C0) -- Updating C cache (64 bytes @ 0x200028C0) -- Read from C cache (4 bytes @ 0x200028F4) -- Data:  51 C2 00 08  returns 0x00 (0001ms, 1403ms total)
T0498 017:011 JLINK_ReadMemU32(0xE0001004, 0x0001 Items, ...) -- CPU_ReadMem(4 bytes @ 0xE0001004) -- Data:  7A 88 23 0C  returns 0x01 (0001ms, 1404ms total)
T0498 017:013 JLINK_ReadMem (0x200003B0, 0x0014 Bytes, ...) -- CPU_ReadMem(128 bytes @ 0x20000380) -- Updating C cache (128 bytes @ 0x20000380) -- Read from C cache (20 bytes @ 0x200003B0) -- Data:  00 00 00 00 00 00 00 00 00 00 00 00 00 00 00 00 ...  returns 0x00 (0002ms, 1405ms total)
T1E7C 017:253 JLINK_ReadMem (0x080122E0, 0x003C Bytes, ...) -- CPU_ReadMem(128 bytes @ 0x080122C0) -- Updating C cache (128 bytes @ 0x080122C0) -- Read from C cache (60 bytes @ 0x080122E0) -- Data:  4F F4 80 61 18 48 FA F7 56 F9 00 F0 B5 F9 FB F7 ...  returns 0x00 (0004ms, 1407ms total)
T1E7C 017:257 JLINK_Step() -- Read from C cache (2 bytes @ 0x080122E0) -- Not simulated -- CPU_WriteMem(4 bytes @ 0xE0002008) -- CPU_WriteMem(4 bytes @ 0xE000200C) -- CPU_WriteMem(4 bytes @ 0xE0002010) -- CPU_WriteMem(4 bytes @ 0xE0002014) -- CPU_WriteMem(4 bytes @ 0xE0002018) -- CPU_WriteMem(4 bytes @ 0xE000201C)  returns 0x00 (0013ms, 1411ms total)
T1E7C 017:270 JLINK_ReadReg(R15)  returns 0x080122E4 (0000ms, 1424ms total)
